#Digilent WaveForms Network Analyzer - Bode
#Device Name: Discovery2
#Serial Number: SN:210321A35F97
#Date Time: 2018-11-23 19:01:28.462
#Start: 9.996 Hz
#Stop: 5e+06 Hz
#Steps: 500
#Wavegen: Wavegen1
#Amplification: 1 X
#Settle: 10 ms
#MinPeriods: 16
#Channel: Channel 1
#Range: 5.43833 V
#Offset: -5.25147e-05 V
#Relative: no
#Channel: Channel 2
#Range: 5.43395 V
#Offset: -2.27108e-05 V
#Relative: yes

Frequency (Hz),Channel 1 Magnitude (dB),Channel 2 Magnitude (dB),Channel 2 Phase (°)
9.9960000000000164,0.015973766152591256,-36.52287745196584,157.30778832101061
10.262363113072064,0.015119238705510412,-36.080500524333729,157.41941516561542
10.535823996052622,0.016082215264118363,-35.572649010131812,155.81898272810375
10.816571783004179,0.017128049845031277,-34.97572757903081,155.87014453395946
11.104800647838941,0.012178451213574564,-34.639402761393711,154.40437625582948
11.40070993861554,0.015098467273917598,-34.165156450944671,153.73178098129259
11.70450431541437,0.014324949080131471,-33.602584175791648,154.76712649546624
12.016393891886858,0.016327924863875593,-33.342952771018119,154.10494718334161
12.336594380576653,0.01398405918034539,-32.922386361375075,152.2428224649247
12.665327242113021,0.010293420236743133,-32.507466934042867,152.82618127140262
13.002819838380073,0.015521985238002611,-32.03638866553905,151.73994158508862
13.349305589767219,0.0140878950051074,-31.503564698146679,151.0398653937722
13.705024136610007,0.013878241283357705,-31.222487732640559,150.7778160945108
14.070221504932837,0.01528728968723923,-30.675001263301887,150.09578097982347
14.445150276608228,0.014315630602675485,-30.256361165617825,150.00736475353636
14.830069764050297,0.013823583723814068,-29.804028369719514,148.1932396216057
15.225246189563313,0.015390723764116834,-29.323980660822549,147.60311398362131
15.63095286946932,0.013951078621452544,-28.995305410776837,147.00340741588232
16.047470403142221,0.01238293564411129,-28.531903619100255,146.44233616320065
16.47508686707905,0.012823779685452598,-28.114089786160385,145.676958863002
16.914098014142635,0.01167429433414513,-27.692659757702984,145.1100048089487
17.364807478113505,0.014650294432823958,-27.267271689763206,144.61552733209049
17.827526983692483,0.014228347739267415,-26.908685319493163,143.62112291598987
18.302576562099073,0.010463904728664026,-26.473582228211541,143.08883193801248
18.79028477241522,0.015173317473352875,-26.110522905454125,142.15923325624408
19.290988928826874,0.013596269562699182,-25.715120772656746,141.16171316230592
19.805035333920983,0.016555155605852825,-25.312637239285177,140.74640803719419
20.332779518199168,0.012815462580002754,-24.923660718185356,139.70725794006208
20.874586485973829,0.013749657630631927,-24.541714748373174,138.81173898255344
21.430830967816092,0.01105877420991749,-24.140512998393291,137.88570093839857
22.001897679731698,0.009600420375080047,-23.791913036415625,137.29316331433995
22.588181589242108,0.016517736473190655,-23.46375793031909,136.1811361790142
23.190088188556604,0.012961259443549332,-23.052163614908427,135.39662908430614
23.808033775023123,0.012369009623989909,-22.697520925166643,134.35529291500939
24.442445739052694,0.014527894243802124,-22.304144693290763,133.71637786045031
25.093762859715834,0.013811422777983959,-21.934587244593775,132.77630073456896
25.762435608215799,0.011486979140771169,-21.556675450932993,131.8597248544261
26.448926459448547,0.011346318227657312,-21.191664505981684,131.01445623054622
27.153710211864755,0.012226854203198238,-20.850471426558734,130.29379886293694
27.877274315855214,0.017007115375779022,-20.514160956483853,129.27279074517568
28.620119210886688,0.013926014965645175,-20.143191268883299,128.10240794068176
29.382758671621477,0.01628439719181983,-19.782458404758771,127.24188299452787
30.16572016325992,0.013058706628064829,-19.45170697460761,126.1461651058487
30.969545206351771,0.011493722243263395,-19.098456161892091,125.167085354308
31.794789751328704,0.0146579004180055,-18.748620232287337,124.18318305169927
32.642024563016896,0.019174231080230968,-18.437736910280023,123.27217590578087
33.511835615395867,0.013708543338536994,-18.103816860062704,122.26155591273216
34.404824496876017,0.014122967369018576,-17.783683723448533,121.29606042697239
35.321608826376355,0.015084791881719633,-17.459451797972896,120.18193916431463
36.262822680488675,0.014608608950119471,-17.140143634253789,119.21000093421304
37.22911703202476,0.016134550734291181,-16.815285745209898,118.19700179446301
38.221160200249429,0.013604104409296696,-16.517142397954188,117.00471290704917
39.239638313110966,0.016037952744041673,-16.205593945458805,116.06522217503471
40.285255781788585,0.013876088128301087,-15.901724785765168,115.11238332478638
41.358735787885117,0.016505245492849829,-15.594909648569562,114.06639544800933
42.460820783601953,0.020217637369187934,-15.311553481801731,112.98467027634229
43.59227300524207,0.017248471812815993,-15.003268374712162,112.23846319793407
44.753875000396413,0.016887298523221957,-14.776774319173541,110.79564577680779
45.946430169178221,0.022792796448753538,-14.429708983993986,110.17079318757705
47.170763319879484,0.015787639969111311,-14.200921304946823,108.58360939998713
48.427721239434199,0.025157136981331717,-13.909182341671059,108.07688731551953
49.718173279082173,0.0096196849080612077,-13.60268119366398,106.17013952588991
51.043011955639976,0.016024597142598386,-13.361490963817722,105.37827803998965
52.403153568793044,0.01281141107211075,-12.979516077493955,104.67702141469789
53.799538834837101,0.015856677695780572,-12.717259959551789,103.54031198758237
55.23313353730687,0.0098945387944814316,-12.536060795316494,102.04431990004541
56.704929194942054,0.011121508286227603,-12.223555446017237,101.07546229742741
58.215943747452542,0.015195533931794106,-12.019166601065304,100.06852296487361
59.767222259557265,0.014096797731907387,-11.71869796714493,99.160632670337009
61.359837643783422,0.013849880457238123,-11.471499754971429,98.077107377903488
62.994891402526285,0.015379182404514021,-11.242475367554698,96.95925784075078
64.673514389882484,0.011659755938876356,-10.984915519817722,95.880831975046689
66.396867593783952,0.016724517153042264,-10.743258997951736,94.822728253149265
68.166142938973323,0.013050234768977809,-10.513677223882818,93.816753387892888
69.982564111376348,0.016253410593089077,-10.273532588722995,92.716500541270577
71.84738740444061,0.018291259751655648,-10.034721656509609,91.587728740581184
73.761902588028079,0.01377947272279129,-9.8020052342703039,90.616049125474206
75.727433800459494,0.018938856000015714,-9.5690863461418765,89.490979954170072
77.745340464329672,0.011810581011697919,-9.3371340031733929,88.457579939818856
79.817018226727313,0.016070996159458624,-9.1164976759673095,87.362088007011579
81.943899924506212,0.013477541391149348,-8.9033917942113341,86.247409254864408
84.127456575282295,0.017186384510091975,-8.6888796169061813,85.248638456410262
86.369198394832523,0.016619081011604139,-8.4730563010981044,84.156232547084983
88.670675841609906,0.016364658739374049,-8.24784928037033,83.100281245816404
91.033480689086261,0.018987867914392966,-8.0400617266170702,82.108173946441369
93.459247126674228,0.012716402409905391,-7.8473161386107737,80.752652642882637
95.949652889982644,0.011915251689146545,-7.6398173533228873,79.598182568115021
98.506420421190967,0.020882229629018877,-7.4362065575684131,78.914997408347787
101.13131806034387,0.02437378806505025,-7.2542390824026111,77.809217691412755
103.82616126839056,0.011143098656800026,-7.0196632365361626,76.534799559537376
106.59281388281303,0.016235625133035475,-6.8275801027950465,75.548103459493746
109.43318940671614,0.0089240641360243574,-6.667650745118662,74.315728687002746
112.34925233226399,0.013446345890514926,-6.4689134903860976,73.261472416793737
115.34301949938472,0.020270430905461847,-6.3128661366478722,72.175810650768796
118.41656149067987,0.016542194139473436,-6.1098267686678112,71.24048881053659
121.57200406350351,0.014593216499229487,-5.9456530524764837,70.127590902551631
124.81152962020245,0.017568269033096922,-5.7860938732179159,69.10934299205681
128.13737871753352,0.017528794116424138,-5.6158854579171678,67.993185835948395
131.55185161630271,0.017783415217738852,-5.4592696880660601,66.930910352114481
135.0573098722962,0.021237309952075716,-5.3016259314054341,65.898814570189231
138.65617796960723,0.015221814364505759,-5.1428037973280629,64.841044424114571
142.35094499748405,0.029450729708381265,-4.9913210086824487,63.774862780900101
146.14416637186159,0.018542180550791383,-4.8426133382375669,62.689190709338448
150.03846560276679,0.020966155268023617,-4.6951537851955196,61.656152044476968
154.03653610881989,0.02156948833638684,-4.5578843611238113,60.620649746098195
158.14114308008641,0.017388864152578037,-4.4149778194345686,59.573461160512693
162.35512539056901,0.016481757180352177,-4.2846815500709399,58.535550987495185
166.68139756166093,0.016593244305514263,-4.1539067109054999,57.508689924234915
171.12295177791984,0.01376919962075727,-4.0257708143675757,56.538289279164061
175.68285995655575,0.018443539981265581,-3.9043105169628167,55.477572467016671
180.36427587206489,0.017502214465558989,-3.7787416810294761,54.457823073696204
185.17043733747792,0.013357424398088721,-3.660520224689928,53.433818602788477
190.10466844373317,0.015200044827192775,-3.5499909276683885,52.473758612359447
195.17038185871942,0.012916159070309817,-3.4337469855994711,51.486720586369927
200.37108118758587,0.018801552981382121,-3.3360274989207683,50.476584212550925
205.71036339594298,0.017512211627943461,-3.2304285759330957,49.549521943231184
211.19192129763621,0.023623124255598774,-3.1297527070399527,48.591007873602138
216.81954610881124,0.013517585161043292,-3.0279816736813618,47.609316423999502
222.59713007003691,0.01711125167698517,-2.9427998311560355,46.614431707670519
228.5286691383001,0.016047444316694824,-2.8489687633353808,45.714281511382957
234.61826575073405,0.014338940807094819,-2.7584696509075597,44.783745794530205
240.87013166199165,0.01645230639713301,-2.67015750268944,43.894553020840704
247.28859085722598,0.014408455366071691,-2.5920941708068397,42.95416784951226
253.87808254269325,0.013193453620999928,-2.5098724255031883,42.115083512016028
260.64316421604605,0.021816982979764397,-2.4382520299142691,41.157171462098248
267.5885148184405,0.017187231395421013,-2.3637906542806162,40.323525202112641
274.71893797063854,0.013170788107998422,-2.2859109171813063,39.463027001997546
282.03936529533848,0.019800347638099638,-2.2170027703141488,38.593416718759613
289.55485982804527,0.018244946775144613,-2.1521138941497147,37.765868804856197
297.2706195188149,0.017307267775136598,-2.0839396917471746,36.944907518513048
305.19198082732777,0.012798484276622328,-2.0241795190399698,36.119163275996847
313.32442241374088,0.012445356784901156,-1.9671317229393928,35.326300659130311
321.67356892790974,0.011364587909654854,-1.9079828179847929,34.560239871722686
330.24519489956117,0.019261313514981459,-1.8591464829152613,33.802315071821695
339.04522873214819,0.0091681554966463151,-1.8008618816606918,32.970152235069463
348.07975680310784,0.0053324442484176384,-1.7499721612823391,32.279310053069047
357.35502767340046,0.01543116923987861,-1.7009469220492381,31.491874455459005
366.87745640919826,0.013647955370104986,-1.6585463388109154,30.800770049379544
376.65362901875295,0.018582079976549322,-1.6094368221479536,30.028875132090491
386.6903070074805,0.0077653818291898158,-1.5656930829413296,29.368057838970145
396.99443205442998,0.013302295342972321,-1.5281256475444116,28.699666826954271
407.5731308133615,0.017480493399456207,-1.4923603536071379,28.031466459291195
418.43371984177054,0.01760832099238718,-1.4537010314733825,27.32217129340097
429.58371066123465,0.016435435512108028,-1.4192635383446106,26.703405046523443
441.03081495262899,0.012711744214697233,-1.3881093719250277,26.088320871410154
452.78294988975136,0.012817084169191065,-1.3522358884947761,25.453690615255468
464.84824361510044,0.024435487642911927,-1.3203086356252649,24.830810539162393
477.2350408615373,0.01799775578651077,-1.2925022344464077,24.244809323471742
489.95190872377771,0.022510123660817831,-1.269984687466277,23.635936143060036
503.00764258364694,0.01379103669002924,-1.2360345706723299,23.060425065261725
516.41127219325256,0.016801288756600922,-1.2078925594761067,22.557156003305536
530.17206792023205,0.014760219815733366,-1.1853937886021393,21.970736065621413
544.29954715943666,0.014468471978539468,-1.1586648904189587,21.40838573589761
558.80348091544738,0.015431322011366613,-1.1345814072783349,20.959939019417927
573.69390056051952,0.016831688682579074,-1.1188426383077026,20.346186180799997
588.9811047725791,0.015179367784964688,-1.0937339462861266,19.88369701883471
604.67566665811717,0.013800957300231351,-1.0772601928357459,19.390430579498997
620.78844106487713,0.01569751545883688,-1.0601616824978621,18.920903535257139
637.33057208940545,0.01255461519368823,-1.0392003486268644,18.45306656089862
654.31350078465596,0.011327539703534745,-1.0193443737704313,17.994960626174514
671.7489730729784,0.02171104981334113,-1.0082814423695043,17.494182477095514
689.64904786996487,0.01914728024959246,-0.99141729033485826,17.117576683747743
708.02610542476873,0.025908670250246665,-0.97686950156206087,16.678515007923352
726.89285588267387,0.01552465299579146,-0.95889240546641363,16.230070670151136
746.26234807582534,0.016376529008832286,-0.94737859342251296,15.85129510608229
766.14797854820767,0.013765701139025427,-0.93496813997258177,15.462821288823108
786.5635008211126,0.027270521702352751,-0.92737413738872787,15.025082854667957
807.52303490550241,0.022565953368029888,-0.9132848126533466,14.697189112948308
829.04107706784998,0.010015645520493915,-0.89900334835036833,14.257575324483
851.13250985620505,0.018969466911387844,-0.89135761134161007,13.90720862459797
873.81261239343246,0.01643708119005298,-0.87952982083984377,13.565733286859821
897.09707094472651,0.017877948946100564,-0.87338955126934792,13.205767653137102
921.00198976672073,0.0061173447538671634,-0.86455605265534508,12.89313294123798
945.54390224569374,0.011641363626863199,-0.8551691400755036,12.560119450443217
970.73978233257412,0.025118694467246242,-0.84409847541368987,12.223691768190534
996.60705628265396,0.010687477436629437,-0.83384055190377637,11.922031293336758
1023.1636147081259,0.0086277934886380778,-0.82999026153129529,11.653209216555723
1050.427824951794,0.016487207288490624,-0.82034723209130767,11.340086281572653
1078.4185437904957,0.013500824050896976,-0.80907565409819382,11.052784660146429
1107.1551304770367,0.018748861585932416,-0.80677187180288057,10.777670781789752
1136.6574601296529,0.019380877332879437,-0.8054269666021594,10.482202223302878
1166.9459374782627,0.017219578290659263,-0.80211260978541932,10.21037019049075
1198.0415109770101,0.018193974449223316,-0.79404712630724772,9.9174760603750229
1229.9656872928767,0.0068931145032214607,-0.78792162084721562,9.7322370974007839
1262.7405461803426,0.0086131607016736861,-0.78525829850591367,9.4515900204201273
1296.3887557524636,0.011439383361511403,-0.78004930528662653,9.1738091606006833
1330.9335881588072,0.010093871784997984,-0.77640481542726525,8.9742781797813436
1366.3989356812308,0.010011911971209791,-0.7674408110801183,8.7361725275698632
1402.809327258499,0.0040682690142337819,-0.76477929547184997,8.4842507209562967
1440.1899454512873,0.0030787112038637766,-0.76419619653567861,8.2384550821431048
1478.5666438591941,0.019232498763195011,-0.75720365314010452,8.1122939266771326
1517.9659650019371,0.0038480708631610395,-0.75868352181554466,7.826284535822964
1558.4151586769387,0.013292198069968212,-0.75041255718766942,7.6687922851823558
1599.9422008061781,0.0081071426794561263,-0.74889800048154886,7.4631932679887996
1642.5758127851759,0.016029158985847797,-0.74481434918961487,7.2509122881708752
1686.3454813476337,0.0098474216753583008,-0.74100019627370883,7.0263315362768637
1731.2814789593504,0.0064087419494112752,-0.73897731670179256,6.8806096071667469
1777.4148847556319,0.010629910168889627,-0.74021422915827928,6.686536201051835
1824.7776060365513,0.012767725215965453,-0.74390481148340992,6.5072396504666399
1873.4024003350803,0.0068477195117444718,-0.73132474962860339,6.3364137264768203
1923.3228980731635,0.019493973460355311,-0.73712603131613585,6.1497928374921571
1974.5736258216173,0.0053428212584117236,-0.73870497974732707,6.0730266713798073
2027.1900301797393,0.0095977713028316796,-0.73156813205874838,5.8438833216229256
2081.2085022913179,0.017504199152648076,-0.72921913061644628,5.6739557990929086
2136.6664030138359,0.011123566125481753,-0.72857075932369209,5.5346531195970954
2193.6020887584605,0.017744352907987763,-0.72978261430046765,5.4107612070732642
2252.0549380184675,0.013211945864286397,-0.72239932995191203,5.2995148083470127
2312.0653786046923,0.026673149898187039,-0.72620220409144753,5.0886360549761633
2373.6749156066157,-0.00067616899776044002,-0.72345591983170487,4.9954129732244539
2436.9261600986138,0.0089516464165257745,-0.72081135085068759,4.903498660804388
2501.8628586110767,0.00088870029451251548,-0.71747454479758055,4.7620674937956551
2568.529923386885,-0.00064828069424094272,-0.71489182367350645,4.5687870265321582
2636.9734634441124,0.012114906651077235,-0.72068257110111245,4.4647712531390926
2707.2408164664594,0.007423871899517492,-0.71669365290200249,4.3778637137695711
2779.380581543463,0.0073261917939502564,-0.71367826777458132,4.2373382304993399
2853.4426527831502,0.011332495289903493,-0.70902342386822004,4.1051600417316081
2929.478253820354,-0.0013730887233547844,-0.71462858216588021,4.0307603037582993
3007.5399732445694,-0.0063284086909433743,-0.69588598003917879,3.8788123996038806
3087.6818009718654,0.012317250828495857,-0.71498659857746705,3.7672018538956777
3169.9591655859886,-0.0044239936934105002,-0.71229002050628365,3.699919988322506
3254.4289726745033,0.011679612769468942,-0.70230357601012838,3.5547301510501086
3341.1496441864529,0.013848742681790906,-0.70701075698790372,3.5369460526791983
3430.1811588388214,0.00060666000692141111,-0.70194644971436237,3.3534988768102494
3521.5850935996659,-0.010097891163224381,-0.69544184452572211,3.3251470225150683
3615.4246662766691,-0.0053880999342682499,-0.7081599910588271,3.1644388806789223
3711.7647792405473,-0.0026691355014066341,-0.70632748076323015,3.1520429042755111
3810.6720643135468,-0.0084497399438862499,-0.70891165081446306,3.0312249999810206
3912.2149288540918,0.0049032014055053709,-0.70364044037783025,2.9782307659484673
4016.4636030694301,-0.004893007955402616,-0.70433262306075806,2.9187836593575298
4123.4901885890531,-0.0030816024868802355,-0.69783965579669194,2.7892909873378144
4233.368708332413,-0.020815854636668706,-0.70687150133041177,2.7166812076350624
4346.1751577054847,-0.012965549015335441,-0.712414227418807,2.612913860834567
4461.9875571615503,-0.013691273608991642,-0.70516787971227612,2.6053562492875244
4580.886006162581,-0.014090429713829102,-0.70875716570107694,2.562417864777621
4702.9527385785168,-0.0069280480678972434,-0.71189110578877002,2.4858257528734242
4828.2721795627594,-0.019608848070064158,-0.70403728792740272,2.335784458052359
4956.931003943263,-0.014334172889468089,-0.70696637227894232,2.24818914204441
5089.0181961695162,-0.0021993888663169297,-0.70407825183537065,2.2760334170006331
5224.625111856998,-0.021700901606723586,-0.69892478126975099,2.0605215164193567
5363.8455409715007,-0.015315443183222806,-0.70332637453583291,2.0336134792941607
5506.7757726972777,-0.027276518090006578,-0.69767542120380666,2.0161654810294465
5653.5146620335445,-0.016955687375595354,-0.71282968618500808,1.9779628188224052
5804.1636981657821,-0.018693455727303982,-0.70141598580091835,1.8085710725521693
5958.8270746586886,-0.022978680787954977,-0.70493128686709561,1.768004617789626
6117.6117615198555,-0.00907190556199086,-0.7146034685743935,1.7482778215150745
6280.6275791833759,-0.042257188971833684,-0.68888064393222659,1.7035010877484922
